T1DD4 11802:292.236   SEGGER J-Link V6.80c Log File
T1DD4 11802:292.308   DLL Compiled: Jun 19 2020 17:22:14
T1DD4 11802:292.337   Logging started @ 2020-12-19 10:52
T1DD4 11802:292.369 JLINK_SetWarnOutHandler(...)
T1DD4 11802:292.396 - 0.039ms
T1DD4 11802:292.425 JLINK_OpenEx(...)
T1DD4 11802:293.648   Firmware: J-Link ARM-OB STM32 compiled Aug 22 2012 19:52:04
T1DD4 11802:295.643   Hardware: V7.00
T1DD4 11802:295.695   S/N: 20090928
T1DD4 11802:295.735   OEM: SEGGER
T1DD4 11802:295.775   Feature(s): RDI,FlashDL,FlashBP,JFlash,GDBFull
T1DD4 11802:296.803   TELNET listener socket opened on port 19021
T1DD4 11802:300.797   WEBSRV Starting webserver
T1DD4 11802:300.992   WEBSRV Webserver running on local port 19080
T1DD4 11802:301.061 - 8.657ms returns "O.K."
T1DD4 11802:301.115 JLINK_GetEmuCaps()
T1DD4 11802:301.150 - 0.054ms returns 0x88EA5833
T1DD4 11802:301.225 JLINK_TIF_GetAvailable(...)
T1DD4 11802:301.409 - 0.206ms
T1DD4 11802:301.456 JLINK_SetErrorOutHandler(...)
T1DD4 11802:301.484 - 0.042ms
T1DD4 11802:301.526 JLINK_ExecCommand("ProjectFile = "E:\BaiduNetdiskDownload\walle\walle-2ÂÖ\Mwbalanced-stm32-Ð¡°ÔÍõLite-firmware-»¥²¹ÂË²¨-none V3.33-walle\JLinkSettings.ini"", ...). 
T1DD4 11802:305.082 - 3.582ms returns 0x00
T1DD4 11802:310.294 JLINK_ExecCommand("Device = STM32F103C8", ...). 
T1DD4 11802:314.245   Device "STM32F103C8" selected.
T1DD4 11802:315.414 - 5.089ms returns 0x00
T1DD4 11802:315.458 JLINK_ExecCommand("DisableConnectionTimeout", ...). 
T1DD4 11802:315.492 - 0.017ms returns 0x01
T1DD4 11802:315.526 JLINK_GetHardwareVersion()
T1DD4 11802:315.554 - 0.040ms returns 0x11170
T1DD4 11802:315.584 JLINK_GetDLLVersion()  returns 68003
T1DD4 11802:315.616 JLINK_GetFirmwareString(...)
T1DD4 11802:315.644 - 0.041ms
T1DD4 11802:323.426 JLINK_GetDLLVersion()  returns 68003
T1DD4 11802:323.474 JLINK_GetCompileDateTime()
T1DD4 11802:323.501 - 0.039ms
T1DD4 11802:325.293 JLINK_GetFirmwareString(...)
T1DD4 11802:325.329 - 0.049ms
T1DD4 11802:330.477 JLINK_GetHardwareVersion()
T1DD4 11802:330.530 - 0.066ms returns 0x11170
T1DD4 11802:352.284 JLINK_TIF_Select(JLINKARM_TIF_SWD)
T1DD4 11802:352.682 - 0.420ms returns 0x00
T1DD4 11802:352.732 JLINK_SetSpeed(5000)
T1DD4 11802:352.861 - 0.147ms
T1DD4 11802:352.907 JLINK_GetId()
T1DD4 11802:359.062   Found SW-DP with ID 0x1BA01477
T1DD4 11802:375.913   Found SW-DP with ID 0x1BA01477
T1DD4 11802:378.845   Old FW that does not support reading DPIDR via DAP jobs
T1DD4 11802:386.913   Unknown DP version. Assuming DPv0
T1DD4 11802:393.583   Scanning AP map to find all available APs
T1DD4 11802:400.790   AP[1]: Stopped AP scan as end of AP map has been reached
T1DD4 11802:406.179   AP[0]: AHB-AP (IDR: 0x14770011)
T1DD4 11802:410.905   Iterating through AP map to find AHB-AP to use
T1DD4 11802:418.831   AP[0]: Core found
T1DD4 11802:424.526   AP[0]: AHB-AP ROM base: 0xE00FF000
T1DD4 11802:430.629   CPUID register: 0x411FC231. Implementer code: 0x41 (ARM)
T1DD4 11802:434.500   Found Cortex-M3 r1p1, Little endian.
T1DD4 11802:535.944   -- Max. mem block: 0x00002C18
T1DD4 11802:536.293   CPU_ReadMem(4 bytes @ 0xE000EDF0)
T1DD4 11802:537.530   CPU_WriteMem(4 bytes @ 0xE000EDF0)
T1DD4 11802:538.441   CPU_ReadMem(4 bytes @ 0xE0002000)
T1DD4 11802:557.308   FPUnit: 6 code (BP) slots and 2 literal slots
T1DD4 11802:557.470   CPU_ReadMem(4 bytes @ 0xE000EDFC)
T1DD4 11802:558.189   CPU_WriteMem(4 bytes @ 0xE000EDFC)
T1DD4 11802:559.000   CPU_ReadMem(4 bytes @ 0xE0001000)
T1DD4 11802:559.812   CPU_WriteMem(4 bytes @ 0xE0001000)
T1DD4 11802:560.853   CPU_ReadMem(4 bytes @ 0xE000ED88)
T1DD4 11802:561.793   CPU_WriteMem(4 bytes @ 0xE000ED88)
T1DD4 11802:562.900   CPU_ReadMem(4 bytes @ 0xE000ED88)
T1DD4 11802:563.658   CPU_WriteMem(4 bytes @ 0xE000ED88)
T1DD4 11802:577.195   CoreSight components:
T1DD4 11802:586.857   ROMTbl[0] @ E00FF000
T1DD4 11802:586.953   CPU_ReadMem(64 bytes @ 0xE00FF000)
T1DD4 11802:588.390   CPU_ReadMem(32 bytes @ 0xE000EFE0)
T1DD4 11802:596.437   ROMTbl[0][0]: E000E000, CID: B105E00D, PID: 001BB000 SCS
T1DD4 11802:596.511   CPU_ReadMem(32 bytes @ 0xE0001FE0)
T1DD4 11802:601.814   ROMTbl[0][1]: E0001000, CID: B105E00D, PID: 001BB002 DWT
T1DD4 11802:601.880   CPU_ReadMem(32 bytes @ 0xE0002FE0)
T1DD4 11802:607.213   ROMTbl[0][2]: E0002000, CID: B105E00D, PID: 000BB003 FPB
T1DD4 11802:607.281   CPU_ReadMem(32 bytes @ 0xE0000FE0)
T1DD4 11802:614.325   ROMTbl[0][3]: E0000000, CID: B105E00D, PID: 001BB001 ITM
T1DD4 11802:614.392   CPU_ReadMem(32 bytes @ 0xE0040FE0)
T1DD4 11802:620.002   ROMTbl[0][4]: E0040000, CID: B105900D, PID: 001BB923 TPIU-Lite
T1DD4 11802:620.638 - 267.758ms   returns 0x1BA01477
T1DD4 11802:620.690 JLINK_GetDLLVersion()  returns 68003
T1DD4 11802:620.727 JLINK_CORE_GetFound()
T1DD4 11802:620.754 - 0.040ms returns 0x30000FF
T1DD4 11802:620.786 JLINK_GetDebugInfo(0x100 = JLINKARM_ROM_TABLE_ADDR_INDEX)
T1DD4 11802:620.817   Value=0xE00FF000
T1DD4 11802:620.857 - 0.084ms returns 0x00
T1DD4 11802:625.346 JLINK_GetDebugInfo(0x100 = JLINKARM_ROM_TABLE_ADDR_INDEX)
T1DD4 11802:625.390   Value=0xE00FF000
T1DD4 11802:625.429 - 0.096ms returns 0x00
T1DD4 11802:625.458 JLINK_GetDebugInfo(0x101 = JLINKARM_DEBUG_INFO_ETM_ADDR_INDEX)
T1DD4 11802:625.484   Value=0x00000000
T1DD4 11802:625.522 - 0.077ms returns 0x00
T1DD4 11802:625.556   JLINK_ReadMemEx(0xE0041FF0, 0x0010 Bytes, ..., Flags = 0x02000004)
T1DD4 11802:625.608   CPU_ReadMem(16 bytes @ 0xE0041FF0)
T1DD4 11802:626.488   Data:  00 00 00 00 00 00 00 00 00 00 00 00 00 00 00 00
T1DD4 11802:626.534 - 0.995ms returns 0x10
T1DD4 11802:626.569 JLINK_GetDebugInfo(0x102 = JLINKARM_DEBUG_INFO_MTB_ADDR_INDEX)
T1DD4 11802:626.596   Value=0x00000000
T1DD4 11802:626.636 - 0.080ms returns 0x00
T1DD4 11802:626.664 JLINK_GetDebugInfo(0x103 = JLINKARM_DEBUG_INFO_TPIU_ADDR_INDEX)
T1DD4 11802:626.691   Value=0xE0040000
T1DD4 11802:626.731 - 0.079ms returns 0x00
T1DD4 11802:626.759 JLINK_GetDebugInfo(0x104 = JLINKARM_DEBUG_INFO_ITM_ADDR_INDEX)
T1DD4 11802:626.785   Value=0xE0000000
T1DD4 11802:626.824 - 0.079ms returns 0x00
T1DD4 11802:626.853 JLINK_GetDebugInfo(0x105 = JLINKARM_DEBUG_INFO_DWT_ADDR_INDEX)
T1DD4 11802:626.879   Value=0xE0001000
T1DD4 11802:626.918 - 0.078ms returns 0x00
T1DD4 11802:626.947 JLINK_GetDebugInfo(0x106 = JLINKARM_DEBUG_INFO_FPB_ADDR_INDEX)
T1DD4 11802:626.974   Value=0xE0002000
T1DD4 11802:627.013 - 0.079ms returns 0x00
T1DD4 11802:627.041 JLINK_GetDebugInfo(0x107 = JLINKARM_DEBUG_INFO_NVIC_ADDR_INDEX)
T1DD4 11802:627.068   Value=0xE000E000
T1DD4 11802:627.106 - 0.078ms returns 0x00
T1DD4 11802:627.135 JLINK_GetDebugInfo(0x10C = JLINKARM_DEBUG_INFO_DBG_ADDR_INDEX)
T1DD4 11802:627.162   Value=0xE000EDF0
T1DD4 11802:627.201 - 0.079ms returns 0x00
T1DD4 11802:627.229 JLINK_GetDebugInfo(0x01 = Unknown)
T1DD4 11802:627.256   Value=0x00000000
T1DD4 11802:627.295 - 0.079ms returns 0x00
T1DD4 11802:627.326 JLINK_ReadMemU32(0xE000ED00, 0x0001 Items, ...)
T1DD4 11802:627.359   CPU_ReadMem(4 bytes @ 0xE000ED00)
T1DD4 11802:627.873   Data:  31 C2 1F 41
T1DD4 11802:627.919   Debug reg: CPUID
T1DD4 11802:627.958 - 0.645ms returns 1
T1DD4 11802:627.989 JLINK_GetDebugInfo(0x10F = JLINKARM_DEBUG_INFO_HAS_CORTEX_M_SECURITY_EXT_INDEX)
T1DD4 11802:628.017   Value=0x00000000
T1DD4 11802:628.056 - 0.079ms returns 0x00
T1DD4 11802:628.090 JLINK_SetResetType(JLINKARM_CM3_RESET_TYPE_NORMAL)
T1DD4 11802:628.117 - 0.040ms returns JLINKARM_CM3_RESET_TYPE_NORMAL
T1DD4 11802:628.147 JLINK_Reset()
T1DD4 11802:628.180   CPU is running
T1DD4 11802:628.221   CPU_WriteMem(4 bytes @ 0xE000EDF0)
T1DD4 11802:628.765   CPU is running
T1DD4 11802:628.811   CPU_WriteMem(4 bytes @ 0xE000EDFC)
T1DD4 11802:633.966   Reset: Halt core after reset via DEMCR.VC_CORERESET.
T1DD4 11802:639.281   Reset: Reset device via AIRCR.SYSRESETREQ.
T1DD4 11802:639.358   CPU is running
T1DD4 11802:639.401   CPU_WriteMem(4 bytes @ 0xE000ED0C)
T1DD4 11802:692.126   CPU_ReadMem(4 bytes @ 0xE000EDF0)
T1DD4 11802:692.706   CPU_ReadMem(4 bytes @ 0xE000EDF0)
T1DD4 11802:693.512   CPU is running
T1DD4 11802:693.580   CPU_WriteMem(4 bytes @ 0xE000EDF0)
T1DD4 11802:694.464   CPU is running
T1DD4 11802:694.541   CPU_WriteMem(4 bytes @ 0xE000EDFC)
T1DD4 11802:700.689   CPU_ReadMem(4 bytes @ 0xE000EDF0)
T1DD4 11802:704.902   CPU_WriteMem(4 bytes @ 0xE0002000)
T1DD4 11802:705.619   CPU_ReadMem(4 bytes @ 0xE000EDFC)
T1DD4 11802:706.333   CPU_ReadMem(4 bytes @ 0xE0001000)
T1DD4 11802:707.078 - 78.955ms
T1DD4 11802:707.157 JLINK_Halt()
T1DD4 11802:707.194 - 0.054ms returns 0x00
T1DD4 11802:707.235 JLINK_ReadMemU32(0xE000EDF0, 0x0001 Items, ...)
T1DD4 11802:707.281   CPU_ReadMem(4 bytes @ 0xE000EDF0)
T1DD4 11802:707.820   Data:  03 00 03 00
T1DD4 11802:707.883   Debug reg: DHCSR
T1DD4 11802:707.936 - 0.719ms returns 1
T1DD4 11802:707.985 JLINK_WriteU32(0xE000EDF0, 0xA05F0003)
T1DD4 11802:708.023   Debug reg: DHCSR
T1DD4 11802:708.088   CPU_WriteMem(4 bytes @ 0xE000EDF0)
T1DD4 11802:708.819 - 0.860ms returns 0
T1DD4 11802:708.873 JLINK_WriteU32(0xE000EDFC, 0x01000000)
T1DD4 11802:708.911   Debug reg: DEMCR
T1DD4 11802:708.972   CPU_WriteMem(4 bytes @ 0xE000EDFC)
T1DD4 11802:709.737 - 0.890ms returns 0
T1DD4 11802:732.395 JLINK_GetHWStatus(...)
T1DD4 11802:732.738 - 0.370ms returns 0x00
T1DD4 11802:748.334 JLINK_GetNumBPUnits(Type = 0xFFFFFF00)
T1DD4 11802:748.393 - 0.073ms returns 0x06
T1DD4 11802:748.423 JLINK_GetNumBPUnits(Type = 0xF0)
T1DD4 11802:748.449 - 0.039ms returns 0x2000
T1DD4 11802:748.479 JLINK_GetNumWPUnits()
T1DD4 11802:748.505 - 0.038ms returns 0x04
T1DD4 11802:763.086 JLINK_GetSpeed()
T1DD4 11802:763.135 - 0.061ms returns 0xFA0
T1DD4 11802:772.385 JLINK_ReadMemU32(0xE000E004, 0x0001 Items, ...)
T1DD4 11802:772.448   CPU_ReadMem(4 bytes @ 0xE000E004)
T1DD4 11802:773.286   Data:  01 00 00 00
T1DD4 11802:773.348 - 0.976ms returns 1
T1DD4 11802:773.383 JLINK_ReadMemU32(0xE000E004, 0x0001 Items, ...)
T1DD4 11802:773.420   CPU_ReadMem(4 bytes @ 0xE000E004)
T1DD4 11802:774.387   Data:  01 00 00 00
T1DD4 11802:774.449 - 1.079ms returns 1
T1DD4 11802:774.489 JLINK_WriteMemEx(0xE0001000, 0x001C Bytes, ..., Flags = 0x02000004)
T1DD4 11802:774.518   Data:  01 00 00 00 00 00 00 00 00 00 00 00 00 00 00 00 ...
T1DD4 11802:774.937   CPU_WriteMem(28 bytes @ 0xE0001000)
T1DD4 11802:776.245 - 1.808ms returns 0x1C
T1DD4 11802:776.323 JLINK_Halt()
T1DD4 11802:776.351 - 0.041ms returns 0x00
T1DD4 11802:776.385 JLINK_IsHalted()
T1DD4 11802:776.413 - 0.041ms returns TRUE
T1DD4 11802:779.674 JLINK_WriteMem(0x20000000, 0x0164 Bytes, ...)
T1DD4 11802:779.717   Data:  00 BE 0A E0 0D 78 2D 06 68 40 08 24 40 00 00 D3 ...
T1DD4 11802:780.111   CPU_WriteMem(356 bytes @ 0x20000000)
T1DD4 11802:784.954 - 5.361ms returns 0x164
T1DD4 11802:785.103 JLINK_WriteReg(R0, 0x08000000)
T1DD4 11802:785.147 - 0.058ms returns 0x00
T1DD4 11802:785.178 JLINK_WriteReg(R1, 0x007A1200)
T1DD4 11802:785.223 - 0.060ms returns 0x00
T1DD4 11802:785.254 JLINK_WriteReg(R2, 0x00000001)
T1DD4 11802:785.281 - 0.040ms returns 0x00
T1DD4 11802:785.310 JLINK_WriteReg(R3, 0x00000000)
T1DD4 11802:785.336 - 0.039ms returns 0x00
T1DD4 11802:785.364 JLINK_WriteReg(R4, 0x00000000)
T1DD4 11802:785.391 - 0.040ms returns 0x00
T1DD4 11802:785.420 JLINK_WriteReg(R5, 0x00000000)
T1DD4 11802:785.447 - 0.040ms returns 0x00
T1DD4 11802:785.475 JLINK_WriteReg(R6, 0x00000000)
T1DD4 11802:785.502 - 0.049ms returns 0x00
T1DD4 11802:785.542 JLINK_WriteReg(R7, 0x00000000)
T1DD4 11802:785.570 - 0.042ms returns 0x00
T1DD4 11802:785.599 JLINK_WriteReg(R8, 0x00000000)
T1DD4 11802:785.626 - 0.040ms returns 0x00
T1DD4 11802:785.654 JLINK_WriteReg(R9, 0x20000160)
T1DD4 11802:785.682 - 0.040ms returns 0x00
T1DD4 11802:785.710 JLINK_WriteReg(R10, 0x00000000)
T1DD4 11802:785.737 - 0.040ms returns 0x00
T1DD4 11802:785.766 JLINK_WriteReg(R11, 0x00000000)
T1DD4 11802:785.792 - 0.039ms returns 0x00
T1DD4 11802:785.820 JLINK_WriteReg(R12, 0x00000000)
T1DD4 11802:785.847 - 0.039ms returns 0x00
T1DD4 11802:785.875 JLINK_WriteReg(R13 (SP), 0x20000800)
T1DD4 11802:785.902 - 0.041ms returns 0x00
T1DD4 11802:785.931 JLINK_WriteReg(R14, 0x20000001)
T1DD4 11802:785.957 - 0.040ms returns 0x00
T1DD4 11802:785.994 JLINK_WriteReg(R15 (PC), 0x20000038)
T1DD4 11802:786.024 - 0.043ms returns 0x00
T1DD4 11802:786.052 JLINK_WriteReg(XPSR, 0x01000000)
T1DD4 11802:786.079 - 0.039ms returns 0x00
T1DD4 11802:786.107 JLINK_WriteReg(MSP, 0x20000800)
T1DD4 11802:786.135 - 0.040ms returns 0x00
T1DD4 11802:786.163 JLINK_WriteReg(PSP, 0x20000800)
T1DD4 11802:786.189 - 0.039ms returns 0x00
T1DD4 11802:786.217 JLINK_WriteReg(CFBP, 0x00000000)
T1DD4 11802:786.244 - 0.040ms returns 0x00
T1DD4 11802:786.280   JLINK_SetBPEx(Addr = 0x20000000, Type = 0xFFFFFFF2)
T1DD4 11802:786.332   CPU_ReadMem(2 bytes @ 0x20000000)
T1DD4 11802:786.854 - 0.598ms returns 0x00000001
T1DD4 11802:786.901 JLINK_Go()
T1DD4 11802:786.943   CPU_WriteMem(2 bytes @ 0x20000000)
T1DD4 11802:787.530   CPU_ReadMem(4 bytes @ 0xE0001000)
T1DD4 11802:788.036   CPU_WriteMem(4 bytes @ 0xE0002008)
T1DD4 11802:788.083   CPU_WriteMem(4 bytes @ 0xE000200C)
T1DD4 11802:788.125   CPU_WriteMem(4 bytes @ 0xE0002010)
T1DD4 11802:788.165   CPU_WriteMem(4 bytes @ 0xE0002014)
T1DD4 11802:788.205   CPU_WriteMem(4 bytes @ 0xE0002018)
T1DD4 11802:788.244   CPU_WriteMem(4 bytes @ 0xE000201C)
T1DD4 11802:790.753   CPU_WriteMem(4 bytes @ 0xE0001004)
T1DD4 11802:794.408 - 7.528ms
T1DD4 11802:794.452 JLINK_IsHalted()
T1DD4 11802:797.675   CPU_ReadMem(2 bytes @ 0x20000000)
T1DD4 11802:798.653 - 4.293ms returns TRUE
T1DD4 11802:798.857 JLINK_ReadReg(R15 (PC))
T1DD4 11802:798.986 - 0.187ms returns 0x20000000
T1DD4 11802:799.130 JLINK_ClrBPEx(BPHandle = 0x00000001)
T1DD4 11802:799.248 - 0.174ms returns 0x00
T1DD4 11802:799.377 JLINK_ReadReg(R0)
T1DD4 11802:799.492 - 0.172ms returns 0x00000000
T1DD4 11802:801.740 JLINK_WriteReg(R0, 0x08000000)
T1DD4 11802:801.903 - 0.223ms returns 0x00
T1DD4 11802:802.029 JLINK_WriteReg(R1, 0x007A1200)
T1DD4 11802:802.179 - 0.188ms returns 0x00
T1DD4 11802:802.260 JLINK_WriteReg(R2, 0x00000001)
T1DD4 11802:802.335 - 0.112ms returns 0x00
T1DD4 11802:802.415 JLINK_WriteReg(R3, 0x00000000)
T1DD4 11802:802.529 - 0.155ms returns 0x00
T1DD4 11802:802.616 JLINK_WriteReg(R4, 0x00000000)
T1DD4 11802:802.691 - 0.113ms returns 0x00
T1DD4 11802:802.771 JLINK_WriteReg(R5, 0x00000000)
T1DD4 11802:802.846 - 0.134ms returns 0x00
T1DD4 11802:802.949 JLINK_WriteReg(R6, 0x00000000)
T1DD4 11802:803.024 - 0.113ms returns 0x00
T1DD4 11802:803.104 JLINK_WriteReg(R7, 0x00000000)
T1DD4 11802:803.183 - 0.116ms returns 0x00
T1DD4 11802:803.264 JLINK_WriteReg(R8, 0x00000000)
T1DD4 11802:803.339 - 0.113ms returns 0x00
T1DD4 11802:803.419 JLINK_WriteReg(R9, 0x20000160)
T1DD4 11802:803.494 - 0.112ms returns 0x00
T1DD4 11802:803.574 JLINK_WriteReg(R10, 0x00000000)
T1DD4 11802:803.650 - 0.113ms returns 0x00
T1DD4 11802:803.730 JLINK_WriteReg(R11, 0x00000000)
T1DD4 11802:803.805 - 0.114ms returns 0x00
T1DD4 11802:803.886 JLINK_WriteReg(R12, 0x00000000)
T1DD4 11802:803.963 - 0.131ms returns 0x00
T1DD4 11802:804.061 JLINK_WriteReg(R13 (SP), 0x20000800)
T1DD4 11802:804.140 - 0.117ms returns 0x00
T1DD4 11802:804.220 JLINK_WriteReg(R14, 0x20000001)
T1DD4 11802:804.295 - 0.114ms returns 0x00
T1DD4 11802:804.380 JLINK_WriteReg(R15 (PC), 0x2000007C)
T1DD4 11802:804.471 - 0.134ms returns 0x00
T1DD4 11802:804.563 JLINK_WriteReg(XPSR, 0x01000000)
T1DD4 11802:804.652 - 0.131ms returns 0x00
T1DD4 11802:804.739 JLINK_WriteReg(MSP, 0x20000800)
T1DD4 11802:804.815 - 0.114ms returns 0x00
T1DD4 11802:804.896 JLINK_WriteReg(PSP, 0x20000800)
T1DD4 11802:804.971 - 0.112ms returns 0x00
T1DD4 11802:805.051 JLINK_WriteReg(CFBP, 0x00000000)
T1DD4 11802:805.129 - 0.144ms returns 0x00
T1DD4 11802:805.262   JLINK_SetBPEx(Addr = 0x20000000, Type = 0xFFFFFFF2)
T1DD4 11802:805.403 - 0.181ms returns 0x00000002
T1DD4 11802:805.485 JLINK_Go()
T1DD4 11802:805.584   CPU_ReadMem(4 bytes @ 0xE0001000)
T1DD4 11802:810.152 - 4.726ms
T1DD4 11802:810.255 JLINK_IsHalted()
T1DD4 11802:811.011 - 0.844ms returns FALSE
T1DD4 11802:835.368 JLINK_IsHalted()
T1DD4 11802:839.001   CPU_ReadMem(2 bytes @ 0x20000000)
T1DD4 11802:839.958 - 4.628ms returns TRUE
T1DD4 11802:840.018 JLINK_ReadReg(R15 (PC))
T1DD4 11802:840.115 - 0.112ms returns 0x20000000
T1DD4 11802:840.146 JLINK_ClrBPEx(BPHandle = 0x00000002)
T1DD4 11802:840.173 - 0.040ms returns 0x00
T1DD4 11802:840.206 JLINK_ReadReg(R0)
T1DD4 11802:840.233 - 0.040ms returns 0x00000000
T1DD4 11802:893.901 JLINK_WriteReg(R0, 0x00000001)
T1DD4 11802:893.957 - 0.071ms returns 0x00
T1DD4 11802:893.987 JLINK_WriteReg(R1, 0x007A1200)
T1DD4 11802:894.014 - 0.040ms returns 0x00
T1DD4 11802:894.042 JLINK_WriteReg(R2, 0x00000001)
T1DD4 11802:894.068 - 0.039ms returns 0x00
T1DD4 11802:894.097 JLINK_WriteReg(R3, 0x00000000)
T1DD4 11802:894.123 - 0.039ms returns 0x00
T1DD4 11802:894.151 JLINK_WriteReg(R4, 0x00000000)
T1DD4 11802:894.177 - 0.039ms returns 0x00
T1DD4 11802:894.206 JLINK_WriteReg(R5, 0x00000000)
T1DD4 11802:894.232 - 0.039ms returns 0x00
T1DD4 11802:894.260 JLINK_WriteReg(R6, 0x00000000)
T1DD4 11802:894.286 - 0.039ms returns 0x00
T1DD4 11802:894.314 JLINK_WriteReg(R7, 0x00000000)
T1DD4 11802:894.341 - 0.039ms returns 0x00
T1DD4 11802:894.369 JLINK_WriteReg(R8, 0x00000000)
T1DD4 11802:894.395 - 0.039ms returns 0x00
T1DD4 11802:894.423 JLINK_WriteReg(R9, 0x20000160)
T1DD4 11802:894.450 - 0.039ms returns 0x00
T1DD4 11802:894.478 JLINK_WriteReg(R10, 0x00000000)
T1DD4 11802:894.504 - 0.039ms returns 0x00
T1DD4 11802:894.532 JLINK_WriteReg(R11, 0x00000000)
T1DD4 11802:894.559 - 0.039ms returns 0x00
T1DD4 11802:894.587 JLINK_WriteReg(R12, 0x00000000)
T1DD4 11802:894.614 - 0.039ms returns 0x00
T1DD4 11802:894.642 JLINK_WriteReg(R13 (SP), 0x20000800)
T1DD4 11802:894.669 - 0.040ms returns 0x00
T1DD4 11802:894.698 JLINK_WriteReg(R14, 0x20000001)
T1DD4 11802:894.724 - 0.039ms returns 0x00
T1DD4 11802:894.752 JLINK_WriteReg(R15 (PC), 0x2000006A)
T1DD4 11802:894.779 - 0.039ms returns 0x00
T1DD4 11802:894.807 JLINK_WriteReg(XPSR, 0x01000000)
T1DD4 11802:894.834 - 0.039ms returns 0x00
T1DD4 11802:894.862 JLINK_WriteReg(MSP, 0x20000800)
T1DD4 11802:894.889 - 0.040ms returns 0x00
T1DD4 11802:894.918 JLINK_WriteReg(PSP, 0x20000800)
T1DD4 11802:894.944 - 0.039ms returns 0x00
T1DD4 11802:894.972 JLINK_WriteReg(CFBP, 0x00000000)
T1DD4 11802:894.999 - 0.040ms returns 0x00
T1DD4 11802:895.028   JLINK_SetBPEx(Addr = 0x20000000, Type = 0xFFFFFFF2)
T1DD4 11802:895.069 - 0.054ms returns 0x00000003
T1DD4 11802:895.098 JLINK_Go()
T1DD4 11802:895.137   CPU_ReadMem(4 bytes @ 0xE0001000)
T1DD4 11802:898.917 - 3.842ms
T1DD4 11802:898.960 JLINK_IsHalted()
T1DD4 11802:902.287   CPU_ReadMem(2 bytes @ 0x20000000)
T1DD4 11802:902.921 - 3.983ms returns TRUE
T1DD4 11802:902.967 JLINK_ReadReg(R15 (PC))
T1DD4 11802:902.998 - 0.045ms returns 0x20000000
T1DD4 11802:903.030 JLINK_ClrBPEx(BPHandle = 0x00000003)
T1DD4 11802:903.058 - 0.041ms returns 0x00
T1DD4 11802:903.089 JLINK_ReadReg(R0)
T1DD4 11802:903.117 - 0.041ms returns 0x00000000
T1DD4 11802:911.964 JLINK_WriteMem(0x20000000, 0x0164 Bytes, ...)
T1DD4 11802:912.007   Data:  00 BE 0A E0 0D 78 2D 06 68 40 08 24 40 00 00 D3 ...
T1DD4 11802:912.062   CPU_WriteMem(356 bytes @ 0x20000000)
T1DD4 11802:916.868 - 4.925ms returns 0x164
T1DD4 11802:916.936 JLINK_WriteReg(R0, 0x08000000)
T1DD4 11802:916.968 - 0.046ms returns 0x00
T1DD4 11802:916.997 JLINK_WriteReg(R1, 0x007A1200)
T1DD4 11802:917.024 - 0.039ms returns 0x00
T1DD4 11802:917.052 JLINK_WriteReg(R2, 0x00000002)
T1DD4 11802:917.078 - 0.039ms returns 0x00
T1DD4 11802:917.106 JLINK_WriteReg(R3, 0x00000000)
T1DD4 11802:917.132 - 0.039ms returns 0x00
T1DD4 11802:917.161 JLINK_WriteReg(R4, 0x00000000)
T1DD4 11802:917.187 - 0.039ms returns 0x00
T1DD4 11802:917.215 JLINK_WriteReg(R5, 0x00000000)
T1DD4 11802:917.241 - 0.039ms returns 0x00
T1DD4 11802:917.270 JLINK_WriteReg(R6, 0x00000000)
T1DD4 11802:917.296 - 0.039ms returns 0x00
T1DD4 11802:917.324 JLINK_WriteReg(R7, 0x00000000)
T1DD4 11802:917.350 - 0.039ms returns 0x00
T1DD4 11802:917.378 JLINK_WriteReg(R8, 0x00000000)
T1DD4 11802:917.405 - 0.039ms returns 0x00
T1DD4 11802:917.433 JLINK_WriteReg(R9, 0x20000160)
T1DD4 11802:917.460 - 0.039ms returns 0x00
T1DD4 11802:917.494 JLINK_WriteReg(R10, 0x00000000)
T1DD4 11802:917.525 - 0.043ms returns 0x00
T1DD4 11802:917.553 JLINK_WriteReg(R11, 0x00000000)
T1DD4 11802:917.579 - 0.039ms returns 0x00
T1DD4 11802:917.608 JLINK_WriteReg(R12, 0x00000000)
T1DD4 11802:917.634 - 0.039ms returns 0x00
T1DD4 11802:917.662 JLINK_WriteReg(R13 (SP), 0x20000800)
T1DD4 11802:917.690 - 0.041ms returns 0x00
T1DD4 11802:917.718 JLINK_WriteReg(R14, 0x20000001)
T1DD4 11802:917.745 - 0.042ms returns 0x00
T1DD4 11802:917.775 JLINK_WriteReg(R15 (PC), 0x20000038)
T1DD4 11802:917.802 - 0.040ms returns 0x00
T1DD4 11802:917.830 JLINK_WriteReg(XPSR, 0x01000000)
T1DD4 11802:917.857 - 0.039ms returns 0x00
T1DD4 11802:917.885 JLINK_WriteReg(MSP, 0x20000800)
T1DD4 11802:917.911 - 0.039ms returns 0x00
T1DD4 11802:917.939 JLINK_WriteReg(PSP, 0x20000800)
T1DD4 11802:917.966 - 0.039ms returns 0x00
T1DD4 11802:917.994 JLINK_WriteReg(CFBP, 0x00000000)
T1DD4 11802:918.020 - 0.039ms returns 0x00
T1DD4 11802:918.049   JLINK_SetBPEx(Addr = 0x20000000, Type = 0xFFFFFFF2)
T1DD4 11802:918.093   CPU_ReadMem(2 bytes @ 0x20000000)
T1DD4 11802:918.600 - 0.573ms returns 0x00000004
T1DD4 11802:918.641 JLINK_Go()
T1DD4 11802:918.674   CPU_WriteMem(2 bytes @ 0x20000000)
T1DD4 11802:919.223   CPU_ReadMem(4 bytes @ 0xE0001000)
T1DD4 11802:922.905 - 4.307ms
T1DD4 11802:922.974 JLINK_IsHalted()
T1DD4 11802:926.465   CPU_ReadMem(2 bytes @ 0x20000000)
T1DD4 11802:927.024 - 4.070ms returns TRUE
T1DD4 11802:927.065 JLINK_ReadReg(R15 (PC))
T1DD4 11802:927.096 - 0.044ms returns 0x20000000
T1DD4 11802:927.125 JLINK_ClrBPEx(BPHandle = 0x00000004)
T1DD4 11802:927.154 - 0.041ms returns 0x00
T1DD4 11802:927.183 JLINK_ReadReg(R0)
T1DD4 11802:927.210 - 0.041ms returns 0x00000000
T1DD4 11802:927.935 JLINK_WriteMem(0x20000164, 0x029C Bytes, ...)
T1DD4 11802:927.970   Data:  20 06 00 20 9D 22 00 08 D5 31 00 08 D7 31 00 08 ...
T1DD4 11802:928.019   CPU_WriteMem(668 bytes @ 0x20000164)
T1DD4 11802:936.446 - 8.609ms returns 0x29C
T1DD4 11802:936.594 JLINK_WriteMem(0x20000400, 0x0164 Bytes, ...)
T1DD4 11802:936.632   Data:  2D E9 F0 41 02 46 00 25 00 26 00 20 00 23 00 24 ...
T1DD4 11802:936.729   CPU_WriteMem(356 bytes @ 0x20000400)
T1DD4 11802:941.660 - 5.134ms returns 0x164
T1DD4 11802:941.765 JLINK_WriteReg(R0, 0x08000000)
T1DD4 11802:941.798 - 0.046ms returns 0x00
T1DD4 11802:941.828 JLINK_WriteReg(R1, 0x00000400)
T1DD4 11802:941.855 - 0.040ms returns 0x00
T1DD4 11802:941.885 JLINK_WriteReg(R2, 0x20000164)
T1DD4 11802:941.912 - 0.039ms returns 0x00
T1DD4 11802:941.940 JLINK_WriteReg(R3, 0x00000000)
T1DD4 11802:941.966 - 0.039ms returns 0x00
T1DD4 11802:941.995 JLINK_WriteReg(R4, 0x00000000)
T1DD4 11802:942.022 - 0.039ms returns 0x00
T1DD4 11802:942.050 JLINK_WriteReg(R5, 0x00000000)
T1DD4 11802:942.076 - 0.039ms returns 0x00
T1DD4 11802:942.105 JLINK_WriteReg(R6, 0x00000000)
T1DD4 11802:942.132 - 0.039ms returns 0x00
T1DD4 11802:942.160 JLINK_WriteReg(R7, 0x00000000)
T1DD4 11802:942.186 - 0.039ms returns 0x00
T1DD4 11802:942.216 JLINK_WriteReg(R8, 0x00000000)
T1DD4 11802:942.242 - 0.039ms returns 0x00
T1DD4 11802:942.270 JLINK_WriteReg(R9, 0x20000160)
T1DD4 11802:942.297 - 0.039ms returns 0x00
T1DD4 11802:942.326 JLINK_WriteReg(R10, 0x00000000)
T1DD4 11802:942.352 - 0.039ms returns 0x00
T1DD4 11802:942.381 JLINK_WriteReg(R11, 0x00000000)
T1DD4 11802:942.407 - 0.039ms returns 0x00
T1DD4 11802:942.437 JLINK_WriteReg(R12, 0x00000000)
T1DD4 11802:942.463 - 0.039ms returns 0x00
T1DD4 11802:942.491 JLINK_WriteReg(R13 (SP), 0x20000800)
T1DD4 11802:942.518 - 0.040ms returns 0x00
T1DD4 11802:942.548 JLINK_WriteReg(R14, 0x20000001)
T1DD4 11802:942.574 - 0.039ms returns 0x00
T1DD4 11802:942.602 JLINK_WriteReg(R15 (PC), 0x200000F4)
T1DD4 11802:942.629 - 0.039ms returns 0x00
T1DD4 11802:942.659 JLINK_WriteReg(XPSR, 0x01000000)
T1DD4 11802:942.685 - 0.040ms returns 0x00
T1DD4 11802:942.716 JLINK_WriteReg(MSP, 0x20000800)
T1DD4 11802:942.742 - 0.039ms returns 0x00
T1DD4 11802:942.772 JLINK_WriteReg(PSP, 0x20000800)
T1DD4 11802:942.798 - 0.043ms returns 0x00
T1DD4 11802:942.835 JLINK_WriteReg(CFBP, 0x00000000)
T1DD4 11802:942.862 - 0.040ms returns 0x00
T1DD4 11802:942.892   JLINK_SetBPEx(Addr = 0x20000000, Type = 0xFFFFFFF2)
T1DD4 11802:942.932 - 0.053ms returns 0x00000005
T1DD4 11802:942.962 JLINK_Go()
T1DD4 11802:942.998   CPU_ReadMem(4 bytes @ 0xE0001000)
T1DD4 11802:947.496 - 4.553ms
T1DD4 11802:947.535 JLINK_IsHalted()
T1DD4 11802:948.102 - 0.600ms returns FALSE
T1DD4 11802:953.769 JLINK_IsHalted()
T1DD4 11802:954.293 - 0.548ms returns FALSE
T1DD4 11802:955.722 JLINK_IsHalted()
T1DD4 11802:956.260 - 0.559ms returns FALSE
T1DD4 11802:957.716 JLINK_IsHalted()
T1DD4 11802:958.252 - 0.556ms returns FALSE
T1DD4 11802:959.742 JLINK_IsHalted()
T1DD4 11802:960.282 - 0.558ms returns FALSE
T1DD4 11802:961.717 JLINK_IsHalted()
T1DD4 11802:962.199 - 0.501ms returns FALSE
T1DD4 11802:963.682 JLINK_IsHalted()
T1DD4 11802:964.199 - 0.536ms returns FALSE
T1DD4 11802:965.722 JLINK_IsHalted()
T1DD4 11802:966.202 - 0.499ms returns FALSE
T1DD4 11802:967.684 JLINK_IsHalted()
T1DD4 11802:968.215 - 0.551ms returns FALSE
T1DD4 11802:969.695 JLINK_IsHalted()
T1DD4 11802:970.223 - 0.550ms returns FALSE
T1DD4 11802:971.682 JLINK_IsHalted()
T1DD4 11802:972.220 - 0.558ms returns FALSE
T1DD4 11802:973.628 JLINK_IsHalted()
T1DD4 11802:974.037 - 0.426ms returns FALSE
T1DD4 11802:975.610 JLINK_IsHalted()
T1DD4 11802:976.013 - 0.419ms returns FALSE
T1DD4 11802:977.657 JLINK_IsHalted()
T1DD4 11802:980.961   CPU_ReadMem(2 bytes @ 0x20000000)
T1DD4 11802:981.548 - 3.909ms returns TRUE
T1DD4 11802:981.588 JLINK_ReadReg(R15 (PC))
T1DD4 11802:981.619 - 0.043ms returns 0x20000000
T1DD4 11802:981.648 JLINK_ClrBPEx(BPHandle = 0x00000005)
T1DD4 11802:981.675 - 0.040ms returns 0x00
T1DD4 11802:981.704 JLINK_ReadReg(R0)
T1DD4 11802:981.730 - 0.039ms returns 0x00000000
T1DD4 11802:982.337 JLINK_WriteMem(0x20000164, 0x029C Bytes, ...)
T1DD4 11802:982.369   Data:  01 61 00 E0 41 61 70 47 C1 60 70 47 4F F4 80 32 ...
T1DD4 11802:982.415   CPU_WriteMem(668 bytes @ 0x20000164)
T1DD4 11802:990.822 - 8.520ms returns 0x29C
T1DD4 11802:990.880 JLINK_WriteMem(0x20000400, 0x0164 Bytes, ...)
T1DD4 11802:990.908   Data:  20 F4 E0 60 08 43 50 60 70 47 01 46 00 20 83 4A ...
T1DD4 11802:990.961   CPU_WriteMem(356 bytes @ 0x20000400)
T1DD4 11802:995.822 - 4.962ms returns 0x164
T1DD4 11802:995.866 JLINK_WriteReg(R0, 0x08000400)
T1DD4 11802:995.897 - 0.045ms returns 0x00
T1DD4 11802:995.926 JLINK_WriteReg(R1, 0x00000400)
T1DD4 11802:995.954 - 0.041ms returns 0x00
T1DD4 11802:995.983 JLINK_WriteReg(R2, 0x20000164)
T1DD4 11802:996.010 - 0.041ms returns 0x00
T1DD4 11802:996.039 JLINK_WriteReg(R3, 0x00000000)
T1DD4 11802:996.066 - 0.040ms returns 0x00
T1DD4 11802:996.095 JLINK_WriteReg(R4, 0x00000000)
T1DD4 11802:996.122 - 0.040ms returns 0x00
T1DD4 11802:996.151 JLINK_WriteReg(R5, 0x00000000)
T1DD4 11802:996.178 - 0.040ms returns 0x00
T1DD4 11802:996.207 JLINK_WriteReg(R6, 0x00000000)
T1DD4 11802:996.234 - 0.040ms returns 0x00
T1DD4 11802:996.262 JLINK_WriteReg(R7, 0x00000000)
T1DD4 11802:996.290 - 0.040ms returns 0x00
T1DD4 11802:996.318 JLINK_WriteReg(R8, 0x00000000)
T1DD4 11802:996.346 - 0.040ms returns 0x00
T1DD4 11802:996.374 JLINK_WriteReg(R9, 0x20000160)
T1DD4 11802:996.401 - 0.040ms returns 0x00
T1DD4 11802:996.430 JLINK_WriteReg(R10, 0x00000000)
T1DD4 11802:996.457 - 0.040ms returns 0x00
T1DD4 11802:996.486 JLINK_WriteReg(R11, 0x00000000)
T1DD4 11802:996.513 - 0.040ms returns 0x00
T1DD4 11802:996.542 JLINK_WriteReg(R12, 0x00000000)
T1DD4 11802:996.569 - 0.040ms returns 0x00
T1DD4 11802:996.598 JLINK_WriteReg(R13 (SP), 0x20000800)
T1DD4 11802:996.628 - 0.043ms returns 0x00
T1DD4 11802:996.657 JLINK_WriteReg(R14, 0x20000001)
T1DD4 11802:996.684 - 0.040ms returns 0x00
T1DD4 11802:996.713 JLINK_WriteReg(R15 (PC), 0x200000F4)
T1DD4 11802:996.741 - 0.041ms returns 0x00
T1DD4 11802:996.769 JLINK_WriteReg(XPSR, 0x01000000)
T1DD4 11802:996.796 - 0.040ms returns 0x00
T1DD4 11802:996.825 JLINK_WriteReg(MSP, 0x20000800)
T1DD4 11802:996.852 - 0.045ms returns 0x00
T1DD4 11802:996.890 JLINK_WriteReg(PSP, 0x20000800)
T1DD4 11802:996.918 - 0.041ms returns 0x00
T1DD4 11802:996.946 JLINK_WriteReg(CFBP, 0x00000000)
T1DD4 11802:996.973 - 0.040ms returns 0x00
T1DD4 11802:997.003   JLINK_SetBPEx(Addr = 0x20000000, Type = 0xFFFFFFF2)
T1DD4 11802:997.044 - 0.055ms returns 0x00000006
T1DD4 11802:997.073 JLINK_Go()
T1DD4 11802:997.109   CPU_ReadMem(4 bytes @ 0xE0001000)
T1DD4 11803:000.750 - 3.697ms
T1DD4 11803:000.792 JLINK_IsHalted()
T1DD4 11803:001.336 - 0.562ms returns FALSE
T1DD4 11803:002.648 JLINK_IsHalted()
T1DD4 11803:003.185 - 0.580ms returns FALSE
T1DD4 11803:004.543 JLINK_IsHalted()
T1DD4 11803:005.068 - 0.544ms returns FALSE
T1DD4 11803:006.618 JLINK_IsHalted()
T1DD4 11803:007.117 - 0.518ms returns FALSE
T1DD4 11803:008.615 JLINK_IsHalted()
T1DD4 11803:009.134 - 0.537ms returns FALSE
T1DD4 11803:010.606 JLINK_IsHalted()
T1DD4 11803:011.121 - 0.533ms returns FALSE
T1DD4 11803:012.602 JLINK_IsHalted()
T1DD4 11803:013.108 - 0.525ms returns FALSE
T1DD4 11803:014.595 JLINK_IsHalted()
T1DD4 11803:015.135 - 0.559ms returns FALSE
T1DD4 11803:016.591 JLINK_IsHalted()
T1DD4 11803:017.114 - 0.542ms returns FALSE
T1DD4 11803:018.534 JLINK_IsHalted()
T1DD4 11803:018.996 - 0.490ms returns FALSE
T1DD4 11803:020.603 JLINK_IsHalted()
T1DD4 11803:021.132 - 0.547ms returns FALSE
T1DD4 11803:022.586 JLINK_IsHalted()
T1DD4 11803:023.120 - 0.552ms returns FALSE
T1DD4 11803:024.569 JLINK_IsHalted()
T1DD4 11803:025.082 - 0.531ms returns FALSE
T1DD4 11803:026.576 JLINK_IsHalted()
T1DD4 11803:027.102 - 0.545ms returns FALSE
T1DD4 11803:028.574 JLINK_IsHalted()
T1DD4 11803:029.094 - 0.539ms returns FALSE
T1DD4 11803:030.559 JLINK_IsHalted()
T1DD4 11803:031.043 - 0.503ms returns FALSE
T1DD4 11803:032.549 JLINK_IsHalted()
T1DD4 11803:035.845   CPU_ReadMem(2 bytes @ 0x20000000)
T1DD4 11803:036.391 - 3.862ms returns TRUE
T1DD4 11803:036.431 JLINK_ReadReg(R15 (PC))
T1DD4 11803:036.464 - 0.047ms returns 0x20000000
T1DD4 11803:036.494 JLINK_ClrBPEx(BPHandle = 0x00000006)
T1DD4 11803:036.522 - 0.042ms returns 0x00
T1DD4 11803:036.552 JLINK_ReadReg(R0)
T1DD4 11803:036.579 - 0.041ms returns 0x00000000
T1DD4 11803:037.158 JLINK_WriteMem(0x20000164, 0x029C Bytes, ...)
T1DD4 11803:037.191   Data:  02 43 2D 4B 5A 61 04 E0 2B 4A 52 69 82 43 2A 4B ...
T1DD4 11803:037.237   CPU_WriteMem(668 bytes @ 0x20000164)
T1DD4 11803:045.648 - 8.513ms returns 0x29C
T1DD4 11803:045.691 JLINK_WriteMem(0x20000400, 0x0164 Bytes, ...)
T1DD4 11803:045.719   Data:  98 42 05 D0 90 4B 98 42 02 D0 90 4B 98 42 04 D1 ...
T1DD4 11803:045.766   CPU_WriteMem(356 bytes @ 0x20000400)
T1DD4 11803:050.506 - 4.844ms returns 0x164
T1DD4 11803:050.570 JLINK_WriteReg(R0, 0x08000800)
T1DD4 11803:050.619 - 0.067ms returns 0x00
T1DD4 11803:050.652 JLINK_WriteReg(R1, 0x00000400)
T1DD4 11803:050.680 - 0.040ms returns 0x00
T1DD4 11803:050.708 JLINK_WriteReg(R2, 0x20000164)
T1DD4 11803:050.734 - 0.039ms returns 0x00
T1DD4 11803:050.762 JLINK_WriteReg(R3, 0x00000000)
T1DD4 11803:050.789 - 0.039ms returns 0x00
T1DD4 11803:050.817 JLINK_WriteReg(R4, 0x00000000)
T1DD4 11803:050.843 - 0.039ms returns 0x00
T1DD4 11803:050.871 JLINK_WriteReg(R5, 0x00000000)
T1DD4 11803:050.898 - 0.039ms returns 0x00
T1DD4 11803:050.926 JLINK_WriteReg(R6, 0x00000000)
T1DD4 11803:050.952 - 0.039ms returns 0x00
T1DD4 11803:050.980 JLINK_WriteReg(R7, 0x00000000)
T1DD4 11803:051.007 - 0.039ms returns 0x00
T1DD4 11803:051.035 JLINK_WriteReg(R8, 0x00000000)
T1DD4 11803:051.061 - 0.039ms returns 0x00
T1DD4 11803:051.089 JLINK_WriteReg(R9, 0x20000160)
T1DD4 11803:051.115 - 0.039ms returns 0x00
T1DD4 11803:051.143 JLINK_WriteReg(R10, 0x00000000)
T1DD4 11803:051.170 - 0.039ms returns 0x00
T1DD4 11803:051.198 JLINK_WriteReg(R11, 0x00000000)
T1DD4 11803:051.224 - 0.039ms returns 0x00
T1DD4 11803:051.252 JLINK_WriteReg(R12, 0x00000000)
T1DD4 11803:051.279 - 0.039ms returns 0x00
T1DD4 11803:051.307 JLINK_WriteReg(R13 (SP), 0x20000800)
T1DD4 11803:051.334 - 0.040ms returns 0x00
T1DD4 11803:051.442 JLINK_WriteReg(R14, 0x20000001)
T1DD4 11803:051.490 - 0.062ms returns 0x00
T1DD4 11803:051.520 JLINK_WriteReg(R15 (PC), 0x200000F4)
T1DD4 11803:051.554 - 0.051ms returns 0x00
T1DD4 11803:051.591 JLINK_WriteReg(XPSR, 0x01000000)
T1DD4 11803:051.622 - 0.043ms returns 0x00
T1DD4 11803:051.651 JLINK_WriteReg(MSP, 0x20000800)
T1DD4 11803:051.693 - 0.060ms returns 0x00
T1DD4 11803:051.736 JLINK_WriteReg(PSP, 0x20000800)
T1DD4 11803:051.765 - 0.042ms returns 0x00
T1DD4 11803:051.793 JLINK_WriteReg(CFBP, 0x00000000)
T1DD4 11803:051.820 - 0.039ms returns 0x00
T1DD4 11803:051.849   JLINK_SetBPEx(Addr = 0x20000000, Type = 0xFFFFFFF2)
T1DD4 11803:051.890 - 0.054ms returns 0x00000007
T1DD4 11803:051.919 JLINK_Go()
T1DD4 11803:051.955   CPU_ReadMem(4 bytes @ 0xE0001000)
T1DD4 11803:055.646 - 3.751ms
T1DD4 11803:055.693 JLINK_IsHalted()
T1DD4 11803:056.183 - 0.508ms returns FALSE
T1DD4 11803:059.484 JLINK_IsHalted()
T1DD4 11803:060.022 - 0.557ms returns FALSE
T1DD4 11803:061.495 JLINK_IsHalted()
T1DD4 11803:062.023 - 0.547ms returns FALSE
T1DD4 11803:063.482 JLINK_IsHalted()
T1DD4 11803:064.013 - 0.550ms returns FALSE
T1DD4 11803:065.468 JLINK_IsHalted()
T1DD4 11803:066.002 - 0.553ms returns FALSE
T1DD4 11803:067.375 JLINK_IsHalted()
T1DD4 11803:067.930 - 0.574ms returns FALSE
T1DD4 11803:071.447 JLINK_IsHalted()
T1DD4 11803:071.985 - 0.558ms returns FALSE
T1DD4 11803:073.439 JLINK_IsHalted()
T1DD4 11803:073.955 - 0.535ms returns FALSE
T1DD4 11803:075.436 JLINK_IsHalted()
T1DD4 11803:075.948 - 0.531ms returns FALSE
T1DD4 11803:077.417 JLINK_IsHalted()
T1DD4 11803:077.928 - 0.530ms returns FALSE
T1DD4 11803:079.435 JLINK_IsHalted()
T1DD4 11803:079.980 - 0.563ms returns FALSE
T1DD4 11803:081.426 JLINK_IsHalted()
T1DD4 11803:081.953 - 0.545ms returns FALSE
T1DD4 11803:083.331 JLINK_IsHalted()
T1DD4 11803:083.897 - 0.589ms returns FALSE
T1DD4 11803:085.416 JLINK_IsHalted()
T1DD4 11803:085.879 - 0.485ms returns FALSE
T1DD4 11803:087.416 JLINK_IsHalted()
T1DD4 11803:090.662   CPU_ReadMem(2 bytes @ 0x20000000)
T1DD4 11803:091.277 - 3.882ms returns TRUE
T1DD4 11803:091.317 JLINK_ReadReg(R15 (PC))
T1DD4 11803:091.347 - 0.044ms returns 0x20000000
T1DD4 11803:091.377 JLINK_ClrBPEx(BPHandle = 0x00000007)
T1DD4 11803:091.405 - 0.041ms returns 0x00
T1DD4 11803:091.435 JLINK_ReadReg(R0)
T1DD4 11803:091.462 - 0.040ms returns 0x00000000
T1DD4 11803:092.061 JLINK_WriteMem(0x20000164, 0x029C Bytes, ...)
T1DD4 11803:092.093   Data:  8D 89 06 EA 85 05 2B 43 CD 89 06 EA 85 05 2B 43 ...
T1DD4 11803:092.139   CPU_WriteMem(668 bytes @ 0x20000164)
T1DD4 11803:100.577 - 8.548ms returns 0x29C
T1DD4 11803:100.630 JLINK_WriteMem(0x20000400, 0x0164 Bytes, ...)
T1DD4 11803:100.658   Data:  4F F6 FF 73 03 EA 01 23 1A 43 02 83 70 47 F0 B5 ...
T1DD4 11803:100.709   CPU_WriteMem(356 bytes @ 0x20000400)
T1DD4 11803:105.468 - 4.867ms returns 0x164
T1DD4 11803:105.525 JLINK_WriteReg(R0, 0x08000C00)
T1DD4 11803:105.558 - 0.047ms returns 0x00
T1DD4 11803:105.587 JLINK_WriteReg(R1, 0x00000400)
T1DD4 11803:105.613 - 0.040ms returns 0x00
T1DD4 11803:105.642 JLINK_WriteReg(R2, 0x20000164)
T1DD4 11803:105.668 - 0.039ms returns 0x00
T1DD4 11803:105.697 JLINK_WriteReg(R3, 0x00000000)
T1DD4 11803:105.723 - 0.040ms returns 0x00
T1DD4 11803:105.752 JLINK_WriteReg(R4, 0x00000000)
T1DD4 11803:105.814 - 0.075ms returns 0x00
T1DD4 11803:105.843 JLINK_WriteReg(R5, 0x00000000)
T1DD4 11803:105.869 - 0.039ms returns 0x00
T1DD4 11803:105.897 JLINK_WriteReg(R6, 0x00000000)
T1DD4 11803:105.923 - 0.039ms returns 0x00
T1DD4 11803:105.951 JLINK_WriteReg(R7, 0x00000000)
T1DD4 11803:105.977 - 0.039ms returns 0x00
T1DD4 11803:106.005 JLINK_WriteReg(R8, 0x00000000)
T1DD4 11803:106.031 - 0.039ms returns 0x00
T1DD4 11803:106.059 JLINK_WriteReg(R9, 0x20000160)
T1DD4 11803:106.086 - 0.039ms returns 0x00
T1DD4 11803:106.114 JLINK_WriteReg(R10, 0x00000000)
T1DD4 11803:106.140 - 0.039ms returns 0x00
T1DD4 11803:106.168 JLINK_WriteReg(R11, 0x00000000)
T1DD4 11803:106.194 - 0.039ms returns 0x00
T1DD4 11803:106.222 JLINK_WriteReg(R12, 0x00000000)
T1DD4 11803:106.257 - 0.048ms returns 0x00
T1DD4 11803:106.286 JLINK_WriteReg(R13 (SP), 0x20000800)
T1DD4 11803:106.313 - 0.040ms returns 0x00
T1DD4 11803:106.341 JLINK_WriteReg(R14, 0x20000001)
T1DD4 11803:106.372 - 0.047ms returns 0x00
T1DD4 11803:106.404 JLINK_WriteReg(R15 (PC), 0x200000F4)
T1DD4 11803:106.431 - 0.039ms returns 0x00
T1DD4 11803:106.459 JLINK_WriteReg(XPSR, 0x01000000)
T1DD4 11803:106.490 - 0.046ms returns 0x00
T1DD4 11803:106.520 JLINK_WriteReg(MSP, 0x20000800)
T1DD4 11803:106.546 - 0.039ms returns 0x00
T1DD4 11803:106.574 JLINK_WriteReg(PSP, 0x20000800)
T1DD4 11803:106.600 - 0.039ms returns 0x00
T1DD4 11803:106.628 JLINK_WriteReg(CFBP, 0x00000000)
T1DD4 11803:106.655 - 0.039ms returns 0x00
T1DD4 11803:106.684   JLINK_SetBPEx(Addr = 0x20000000, Type = 0xFFFFFFF2)
T1DD4 11803:106.724 - 0.053ms returns 0x00000008
T1DD4 11803:106.752 JLINK_Go()
T1DD4 11803:106.787   CPU_ReadMem(4 bytes @ 0xE0001000)
T1DD4 11803:110.536 - 3.803ms
T1DD4 11803:110.578 JLINK_IsHalted()
T1DD4 11803:111.127 - 0.568ms returns FALSE
T1DD4 11803:112.355 JLINK_IsHalted()
T1DD4 11803:112.869 - 0.532ms returns FALSE
T1DD4 11803:114.345 JLINK_IsHalted()
T1DD4 11803:114.808 - 0.483ms returns FALSE
T1DD4 11803:116.261 JLINK_IsHalted()
T1DD4 11803:116.792 - 0.548ms returns FALSE
T1DD4 11803:118.294 JLINK_IsHalted()
T1DD4 11803:118.764 - 0.498ms returns FALSE
T1DD4 11803:120.314 JLINK_IsHalted()
T1DD4 11803:120.842 - 0.547ms returns FALSE
T1DD4 11803:122.311 JLINK_IsHalted()
T1DD4 11803:122.830 - 0.538ms returns FALSE
T1DD4 11803:124.303 JLINK_IsHalted()
T1DD4 11803:124.815 - 0.530ms returns FALSE
T1DD4 11803:126.298 JLINK_IsHalted()
T1DD4 11803:126.819 - 0.540ms returns FALSE
T1DD4 11803:128.309 JLINK_IsHalted()
T1DD4 11803:128.825 - 0.534ms returns FALSE
T1DD4 11803:130.300 JLINK_IsHalted()
T1DD4 11803:130.712 - 0.432ms returns FALSE
T1DD4 11803:132.198 JLINK_IsHalted()
T1DD4 11803:132.603 - 0.423ms returns FALSE
T1DD4 11803:134.222 JLINK_IsHalted()
T1DD4 11803:134.649 - 0.445ms returns FALSE
T1DD4 11803:136.323 JLINK_IsHalted()
T1DD4 11803:136.803 - 0.499ms returns FALSE
T1DD4 11803:138.245 JLINK_IsHalted()
T1DD4 11803:138.729 - 0.503ms returns FALSE
T1DD4 11803:140.230 JLINK_IsHalted()
T1DD4 11803:140.720 - 0.509ms returns FALSE
T1DD4 11803:142.225 JLINK_IsHalted()
T1DD4 11803:145.500   CPU_ReadMem(2 bytes @ 0x20000000)
T1DD4 11803:146.033 - 3.826ms returns TRUE
T1DD4 11803:146.070 JLINK_ReadReg(R15 (PC))
T1DD4 11803:146.100 - 0.043ms returns 0x20000000
T1DD4 11803:146.130 JLINK_ClrBPEx(BPHandle = 0x00000008)
T1DD4 11803:146.161 - 0.046ms returns 0x00
T1DD4 11803:146.206 JLINK_ReadReg(R0)
T1DD4 11803:146.241 - 0.053ms returns 0x00000000
T1DD4 11803:148.036 JLINK_WriteMem(0x20000164, 0x029C Bytes, ...)
T1DD4 11803:148.078   Data:  FF F7 53 FF E1 88 28 46 FF F7 42 FF 17 E0 20 88 ...
T1DD4 11803:148.127   CPU_WriteMem(668 bytes @ 0x20000164)
T1DD4 11803:156.552 - 8.544ms returns 0x29C
T1DD4 11803:156.602 JLINK_WriteMem(0x20000400, 0x0164 Bytes, ...)
T1DD4 11803:156.630   Data:  11 43 01 80 70 47 F0 B5 0C 46 15 46 1E 46 00 21 ...
T1DD4 11803:156.677   CPU_WriteMem(356 bytes @ 0x20000400)
T1DD4 11803:161.495 - 4.914ms returns 0x164
T1DD4 11803:161.541 JLINK_WriteReg(R0, 0x08001000)
T1DD4 11803:161.572 - 0.044ms returns 0x00
T1DD4 11803:161.601 JLINK_WriteReg(R1, 0x00000400)
T1DD4 11803:161.628 - 0.041ms returns 0x00
T1DD4 11803:161.657 JLINK_WriteReg(R2, 0x20000164)
T1DD4 11803:161.684 - 0.040ms returns 0x00
T1DD4 11803:161.713 JLINK_WriteReg(R3, 0x00000000)
T1DD4 11803:161.740 - 0.040ms returns 0x00
T1DD4 11803:161.769 JLINK_WriteReg(R4, 0x00000000)
T1DD4 11803:161.796 - 0.040ms returns 0x00
T1DD4 11803:161.824 JLINK_WriteReg(R5, 0x00000000)
T1DD4 11803:161.852 - 0.040ms returns 0x00
T1DD4 11803:161.880 JLINK_WriteReg(R6, 0x00000000)
T1DD4 11803:161.907 - 0.040ms returns 0x00
T1DD4 11803:161.936 JLINK_WriteReg(R7, 0x00000000)
T1DD4 11803:161.963 - 0.040ms returns 0x00
T1DD4 11803:161.992 JLINK_WriteReg(R8, 0x00000000)
T1DD4 11803:162.024 - 0.049ms returns 0x00
T1DD4 11803:162.056 JLINK_WriteReg(R9, 0x20000160)
T1DD4 11803:162.087 - 0.048ms returns 0x00
T1DD4 11803:162.132 JLINK_WriteReg(R10, 0x00000000)
T1DD4 11803:162.169 - 0.055ms returns 0x00
T1DD4 11803:162.206 JLINK_WriteReg(R11, 0x00000000)
T1DD4 11803:162.250 - 0.066ms returns 0x00
T1DD4 11803:162.304 JLINK_WriteReg(R12, 0x00000000)
T1DD4 11803:162.340 - 0.050ms returns 0x00
T1DD4 11803:162.379 JLINK_WriteReg(R13 (SP), 0x20000800)
T1DD4 11803:162.410 - 0.044ms returns 0x00
T1DD4 11803:162.439 JLINK_WriteReg(R14, 0x20000001)
T1DD4 11803:162.477 - 0.057ms returns 0x00
T1DD4 11803:162.515 JLINK_WriteReg(R15 (PC), 0x200000F4)
T1DD4 11803:162.543 - 0.046ms returns 0x00
T1DD4 11803:162.588 JLINK_WriteReg(XPSR, 0x01000000)
T1DD4 11803:162.618 - 0.044ms returns 0x00
T1DD4 11803:162.724 JLINK_WriteReg(MSP, 0x20000800)
T1DD4 11803:162.759 - 0.049ms returns 0x00
T1DD4 11803:162.789 JLINK_WriteReg(PSP, 0x20000800)
T1DD4 11803:162.816 - 0.041ms returns 0x00
T1DD4 11803:162.845 JLINK_WriteReg(CFBP, 0x00000000)
T1DD4 11803:162.873 - 0.040ms returns 0x00
T1DD4 11803:162.902   JLINK_SetBPEx(Addr = 0x20000000, Type = 0xFFFFFFF2)
T1DD4 11803:162.944 - 0.055ms returns 0x00000009
T1DD4 11803:162.973 JLINK_Go()
T1DD4 11803:163.010   CPU_ReadMem(4 bytes @ 0xE0001000)
T1DD4 11803:166.765 - 3.811ms
T1DD4 11803:166.803 JLINK_IsHalted()
T1DD4 11803:167.340 - 0.556ms returns FALSE
T1DD4 11803:171.116 JLINK_IsHalted()
T1DD4 11803:171.678 - 0.581ms returns FALSE
T1DD4 11803:173.109 JLINK_IsHalted()
T1DD4 11803:173.631 - 0.540ms returns FALSE
T1DD4 11803:175.112 JLINK_IsHalted()
T1DD4 11803:175.654 - 0.560ms returns FALSE
T1DD4 11803:177.086 JLINK_IsHalted()
T1DD4 11803:177.596 - 0.528ms returns FALSE
T1DD4 11803:178.997 JLINK_IsHalted()
T1DD4 11803:179.518 - 0.539ms returns FALSE
T1DD4 11803:181.094 JLINK_IsHalted()
T1DD4 11803:181.634 - 0.558ms returns FALSE
T1DD4 11803:183.071 JLINK_IsHalted()
T1DD4 11803:183.597 - 0.544ms returns FALSE
T1DD4 11803:184.984 JLINK_IsHalted()
T1DD4 11803:185.553 - 0.589ms returns FALSE
T1DD4 11803:187.070 JLINK_IsHalted()
T1DD4 11803:187.567 - 0.515ms returns FALSE
T1DD4 11803:189.063 JLINK_IsHalted()
T1DD4 11803:189.613 - 0.568ms returns FALSE
T1DD4 11803:191.058 JLINK_IsHalted()
T1DD4 11803:191.597 - 0.558ms returns FALSE
T1DD4 11803:193.064 JLINK_IsHalted()
T1DD4 11803:193.590 - 0.545ms returns FALSE
T1DD4 11803:195.075 JLINK_IsHalted()
T1DD4 11803:195.510 - 0.455ms returns FALSE
T1DD4 11803:197.060 JLINK_IsHalted()
T1DD4 11803:200.360   CPU_ReadMem(2 bytes @ 0x20000000)
T1DD4 11803:200.965 - 3.924ms returns TRUE
T1DD4 11803:201.003 JLINK_ReadReg(R15 (PC))
T1DD4 11803:201.033 - 0.043ms returns 0x20000000
T1DD4 11803:201.062 JLINK_ClrBPEx(BPHandle = 0x00000009)
T1DD4 11803:201.089 - 0.039ms returns 0x00
T1DD4 11803:201.117 JLINK_ReadReg(R0)
T1DD4 11803:201.143 - 0.039ms returns 0x00000000
T1DD4 11803:201.774 JLINK_WriteMem(0x20000164, 0x029C Bytes, ...)
T1DD4 11803:201.807   Data:  11 43 01 83 70 47 0A 46 00 21 01 8B 4F F6 FF 33 ...
T1DD4 11803:201.854   CPU_WriteMem(668 bytes @ 0x20000164)
T1DD4 11803:210.213 - 8.467ms returns 0x29C
T1DD4 11803:210.263 JLINK_WriteMem(0x20000400, 0x0164 Bytes, ...)
T1DD4 11803:210.291   Data:  01 46 88 8F 70 47 01 46 B1 F8 40 00 70 47 01 46 ...
T1DD4 11803:210.339   CPU_WriteMem(356 bytes @ 0x20000400)
T1DD4 11803:215.094 - 4.854ms returns 0x164
T1DD4 11803:215.145 JLINK_WriteReg(R0, 0x08001400)
T1DD4 11803:215.176 - 0.045ms returns 0x00
T1DD4 11803:215.207 JLINK_WriteReg(R1, 0x00000400)
T1DD4 11803:215.234 - 0.041ms returns 0x00
T1DD4 11803:215.265 JLINK_WriteReg(R2, 0x20000164)
T1DD4 11803:215.292 - 0.040ms returns 0x00
T1DD4 11803:215.320 JLINK_WriteReg(R3, 0x00000000)
T1DD4 11803:215.347 - 0.040ms returns 0x00
T1DD4 11803:215.377 JLINK_WriteReg(R4, 0x00000000)
T1DD4 11803:215.404 - 0.040ms returns 0x00
T1DD4 11803:215.433 JLINK_WriteReg(R5, 0x00000000)
T1DD4 11803:215.460 - 0.040ms returns 0x00
T1DD4 11803:215.490 JLINK_WriteReg(R6, 0x00000000)
T1DD4 11803:215.516 - 0.045ms returns 0x00
T1DD4 11803:215.555 JLINK_WriteReg(R7, 0x00000000)
T1DD4 11803:215.582 - 0.040ms returns 0x00
T1DD4 11803:215.612 JLINK_WriteReg(R8, 0x00000000)
T1DD4 11803:215.639 - 0.040ms returns 0x00
T1DD4 11803:215.668 JLINK_WriteReg(R9, 0x20000160)
T1DD4 11803:215.694 - 0.040ms returns 0x00
T1DD4 11803:215.724 JLINK_WriteReg(R10, 0x00000000)
T1DD4 11803:215.751 - 0.040ms returns 0x00
T1DD4 11803:215.780 JLINK_WriteReg(R11, 0x00000000)
T1DD4 11803:215.807 - 0.040ms returns 0x00
T1DD4 11803:215.837 JLINK_WriteReg(R12, 0x00000000)
T1DD4 11803:215.864 - 0.040ms returns 0x00
T1DD4 11803:215.892 JLINK_WriteReg(R13 (SP), 0x20000800)
T1DD4 11803:215.920 - 0.042ms returns 0x00
T1DD4 11803:215.951 JLINK_WriteReg(R14, 0x20000001)
T1DD4 11803:215.978 - 0.040ms returns 0x00
T1DD4 11803:216.009 JLINK_WriteReg(R15 (PC), 0x200000F4)
T1DD4 11803:216.036 - 0.040ms returns 0x00
T1DD4 11803:216.066 JLINK_WriteReg(XPSR, 0x01000000)
T1DD4 11803:216.093 - 0.040ms returns 0x00
T1DD4 11803:216.122 JLINK_WriteReg(MSP, 0x20000800)
T1DD4 11803:216.149 - 0.040ms returns 0x00
T1DD4 11803:216.178 JLINK_WriteReg(PSP, 0x20000800)
T1DD4 11803:216.205 - 0.040ms returns 0x00
T1DD4 11803:216.234 JLINK_WriteReg(CFBP, 0x00000000)
T1DD4 11803:216.261 - 0.040ms returns 0x00
T1DD4 11803:216.292   JLINK_SetBPEx(Addr = 0x20000000, Type = 0xFFFFFFF2)
T1DD4 11803:216.333 - 0.055ms returns 0x0000000A
T1DD4 11803:216.364 JLINK_Go()
T1DD4 11803:216.400   CPU_ReadMem(4 bytes @ 0xE0001000)
T1DD4 11803:220.094 - 3.761ms
T1DD4 11803:220.148 JLINK_IsHalted()
T1DD4 11803:220.663 - 0.534ms returns FALSE
T1DD4 11803:221.977 JLINK_IsHalted()
T1DD4 11803:222.562 - 0.604ms returns FALSE
T1DD4 11803:223.969 JLINK_IsHalted()
T1DD4 11803:224.511 - 0.560ms returns FALSE
T1DD4 11803:225.969 JLINK_IsHalted()
T1DD4 11803:226.464 - 0.514ms returns FALSE
T1DD4 11803:227.898 JLINK_IsHalted()
T1DD4 11803:228.359 - 0.486ms returns FALSE
T1DD4 11803:229.944 JLINK_IsHalted()
T1DD4 11803:230.433 - 0.507ms returns FALSE
T1DD4 11803:231.969 JLINK_IsHalted()
T1DD4 11803:232.554 - 0.602ms returns FALSE
T1DD4 11803:233.962 JLINK_IsHalted()
T1DD4 11803:234.511 - 0.567ms returns FALSE
T1DD4 11803:235.940 JLINK_IsHalted()
T1DD4 11803:236.457 - 0.539ms returns FALSE
T1DD4 11803:237.879 JLINK_IsHalted()
T1DD4 11803:238.418 - 0.558ms returns FALSE
T1DD4 11803:239.945 JLINK_IsHalted()
T1DD4 11803:240.560 - 0.633ms returns FALSE
T1DD4 11803:241.944 JLINK_IsHalted()
T1DD4 11803:242.433 - 0.510ms returns FALSE
T1DD4 11803:248.897 JLINK_IsHalted()
T1DD4 11803:249.480 - 0.603ms returns FALSE
T1DD4 11803:250.912 JLINK_IsHalted()
T1DD4 11803:254.269   CPU_ReadMem(2 bytes @ 0x20000000)
T1DD4 11803:254.874 - 3.981ms returns TRUE
T1DD4 11803:254.913 JLINK_ReadReg(R15 (PC))
T1DD4 11803:254.943 - 0.043ms returns 0x20000000
T1DD4 11803:254.972 JLINK_ClrBPEx(BPHandle = 0x0000000A)
T1DD4 11803:254.999 - 0.040ms returns 0x00
T1DD4 11803:255.028 JLINK_ReadReg(R0)
T1DD4 11803:255.055 - 0.040ms returns 0x00000000
T1DD4 11803:255.676 JLINK_WriteMem(0x20000164, 0x029C Bytes, ...)
T1DD4 11803:255.709   Data:  00 EB 0A 10 31 68 89 00 B0 FB F1 F8 64 20 B8 FB ...
T1DD4 11803:255.754   CPU_WriteMem(668 bytes @ 0x20000164)
T1DD4 11803:264.266 - 8.612ms returns 0x29C
T1DD4 11803:264.308 JLINK_WriteMem(0x20000400, 0x0164 Bytes, ...)
T1DD4 11803:264.336   Data:  01 2D 02 D1 96 89 33 40 06 E0 02 2D 02 D1 16 8A ...
T1DD4 11803:264.382   CPU_WriteMem(356 bytes @ 0x20000400)
T1DD4 11803:269.305 - 5.027ms returns 0x164
T1DD4 11803:269.364 JLINK_WriteReg(R0, 0x08001800)
T1DD4 11803:269.397 - 0.049ms returns 0x00
T1DD4 11803:269.426 JLINK_WriteReg(R1, 0x00000400)
T1DD4 11803:269.452 - 0.039ms returns 0x00
T1DD4 11803:269.480 JLINK_WriteReg(R2, 0x20000164)
T1DD4 11803:269.507 - 0.039ms returns 0x00
T1DD4 11803:269.535 JLINK_WriteReg(R3, 0x00000000)
T1DD4 11803:269.561 - 0.039ms returns 0x00
T1DD4 11803:269.589 JLINK_WriteReg(R4, 0x00000000)
T1DD4 11803:269.615 - 0.039ms returns 0x00
T1DD4 11803:269.643 JLINK_WriteReg(R5, 0x00000000)
T1DD4 11803:269.675 - 0.049ms returns 0x00
T1DD4 11803:269.708 JLINK_WriteReg(R6, 0x00000000)
T1DD4 11803:269.734 - 0.041ms returns 0x00
T1DD4 11803:269.765 JLINK_WriteReg(R7, 0x00000000)
T1DD4 11803:269.791 - 0.039ms returns 0x00
T1DD4 11803:269.819 JLINK_WriteReg(R8, 0x00000000)
T1DD4 11803:269.845 - 0.039ms returns 0x00
T1DD4 11803:269.873 JLINK_WriteReg(R9, 0x20000160)
T1DD4 11803:269.899 - 0.039ms returns 0x00
T1DD4 11803:269.927 JLINK_WriteReg(R10, 0x00000000)
T1DD4 11803:269.954 - 0.039ms returns 0x00
T1DD4 11803:269.982 JLINK_WriteReg(R11, 0x00000000)
T1DD4 11803:270.008 - 0.039ms returns 0x00
T1DD4 11803:270.036 JLINK_WriteReg(R12, 0x00000000)
T1DD4 11803:270.062 - 0.039ms returns 0x00
T1DD4 11803:270.090 JLINK_WriteReg(R13 (SP), 0x20000800)
T1DD4 11803:270.117 - 0.040ms returns 0x00
T1DD4 11803:270.145 JLINK_WriteReg(R14, 0x20000001)
T1DD4 11803:270.172 - 0.039ms returns 0x00
T1DD4 11803:270.200 JLINK_WriteReg(R15 (PC), 0x200000F4)
T1DD4 11803:270.226 - 0.039ms returns 0x00
T1DD4 11803:270.254 JLINK_WriteReg(XPSR, 0x01000000)
T1DD4 11803:270.280 - 0.039ms returns 0x00
T1DD4 11803:270.308 JLINK_WriteReg(MSP, 0x20000800)
T1DD4 11803:270.335 - 0.039ms returns 0x00
T1DD4 11803:270.363 JLINK_WriteReg(PSP, 0x20000800)
T1DD4 11803:270.389 - 0.039ms returns 0x00
T1DD4 11803:270.417 JLINK_WriteReg(CFBP, 0x00000000)
T1DD4 11803:270.443 - 0.039ms returns 0x00
T1DD4 11803:270.472   JLINK_SetBPEx(Addr = 0x20000000, Type = 0xFFFFFFF2)
T1DD4 11803:270.512 - 0.053ms returns 0x0000000B
T1DD4 11803:270.541 JLINK_Go()
T1DD4 11803:270.577   CPU_ReadMem(4 bytes @ 0xE0001000)
T1DD4 11803:274.254 - 3.751ms
T1DD4 11803:274.316 JLINK_IsHalted()
T1DD4 11803:274.768 - 0.476ms returns FALSE
T1DD4 11803:278.792 JLINK_IsHalted()
T1DD4 11803:279.331 - 0.559ms returns FALSE
T1DD4 11803:280.793 JLINK_IsHalted()
